Circuit: * C:\RIT\Fifth_Year\MSD_I\MSD_P18538\hardware\rpi_hat_spice\rpi_hat.asc

Direct Newton iteration for .op point succeeded.
Semiconductor Device Operating Points:
                        --- Diodes ---
Name:    d:u2:2      d:u2:3      d:u2:1
Model:   u2:2ma       u2:d        u2:d
Id:      1.99e-03   -7.74e-13   -6.77e-13
Vd:      1.49e+00   -7.73e-01   -6.77e-01
Req:     4.00e-03    1.00e-12    1.00e-12
CAP:     0.00e+00    0.00e+00    0.00e+00

                        --- Bipolar Transistors ---
Name:     q:u2:12     q:u2:7      q:u2:3      q:u2:1
Model:     u2:pa       u2:na       u2:np       u2:n
Ib:      -3.40e-05    5.23e-07    4.53e-06    4.36e-07
Ic:      -2.72e-03    6.54e-05    5.44e-03    5.45e-05
Vbe:     -8.00e-01    7.04e-01    8.18e-01    1.24e+00
Vbc:      1.79e-02   -7.73e-01   -6.77e-01   -7.22e-01
Vce:     -8.18e-01    1.48e+00    1.49e+00    1.96e+00
BetaDC:   8.00e+01    1.25e+02    1.20e+03    1.25e+02
Gm:       1.05e-01    2.53e-03    2.10e-01    2.11e-03
Rpi:      7.60e+02    4.94e+04    5.71e+03    5.93e+04
Rx:       0.00e+00    0.00e+00    0.00e+00    0.00e+00
Ro:       5.16e+14    2.47e+27    5.94e+25    3.38e+26
Cbe:      0.00e+00    0.00e+00    0.00e+00    0.00e+00
Cbc:      0.00e+00    0.00e+00    0.00e+00    3.20e-11
Cjs:      0.00e+00    0.00e+00    0.00e+00    0.00e+00
BetaAC:   8.00e+01    1.25e+02    1.20e+03    1.25e+02
Cbx:      0.00e+00    0.00e+00    0.00e+00    0.00e+00
Ft:       0.00e+00    0.00e+00    0.00e+00    1.05e+07



Date: Wed Nov 15 19:42:20 2023
Total elapsed time: 0.028 seconds.

tnom = 27
temp = 27
method = trap
totiter = 10
traniter = 0
tranpoints = 0
accept = 0
rejected = 0
matrix size = 8
fillins = 4
solver = Normal
Matrix Compiler1: 1.00 KB object code size
Matrix Compiler2: 880 bytes object code size
